
**** 12/23/21 14:03:59 ******* PSpice Lite (March 2016) ******* ID# 10813 ****

 ** Profile: "SCHEMATIC1-sfdg"  [ C:\Users\ADMIN\Desktop\b5\b5-pspicefiles\schematic1\sfdg.sim ] 


 ****     CIRCUIT DESCRIPTION


******************************************************************************




** Creating circuit file "sfdg.cir" 
** WARNING: THIS AUTOMATICALLY GENERATED FILE MAY BE OVERWRITTEN BY SUBSEQUENT SIMULATIONS

*Libraries: 
* Profile Libraries :
* Local Libraries :
* From [PSPICE NETLIST] section of C:\Users\ADMIN\AppData\Roaming\SPB_Data\cdssetup\OrCAD_PSpice\17.2.0\PSpice.ini file:
.lib "nomd.lib" 

*Analysis directives: 
.TRAN  0 3.00002 2.99998 0.0000001 
.OPTIONS ADVCONV
.PROBE64 V(alias(*)) I(alias(*)) W(alias(*)) D(alias(*)) NOISE(alias(*)) 
.INC "..\SCHEMATIC1.net" 



**** INCLUDING SCHEMATIC1.net ****
* source B5
V_V1         N01245 0 10Vdc
L_L1         N01363 0  100mH IC=0.0000714285714285 
X_S1         N01245 N01263 Sw_tClose PARAMS: tClose=2.99999933 ttran=1u
+  Rclosed=0.01 Ropen=100000Meg
R_R2         N01369 N01263  50k TC=0,0 
V_V2         N01369 0 5Vdc
R_R3         N01363 N01263  20k TC=0,0 
R_R1         0 N01245  200k TC=0,0 

**** RESUMING sfdg.cir ****
.END

**** 12/23/21 14:03:59 ******* PSpice Lite (March 2016) ******* ID# 10813 ****

 ** Profile: "SCHEMATIC1-sfdg"  [ C:\Users\ADMIN\Desktop\b5\b5-pspicefiles\schematic1\sfdg.sim ] 


 ****     Voltage Controlled Switch MODEL PARAMETERS


******************************************************************************




               X_S1.Smod       
         RON     .01         
        ROFF  100.000000E+09 
         VON    1            
        VOFF    0            


**** 12/23/21 14:03:59 ******* PSpice Lite (March 2016) ******* ID# 10813 ****

 ** Profile: "SCHEMATIC1-sfdg"  [ C:\Users\ADMIN\Desktop\b5\b5-pspicefiles\schematic1\sfdg.sim ] 


 ****     INITIAL TRANSIENT SOLUTION       TEMPERATURE =   27.000 DEG C


******************************************************************************



 NODE   VOLTAGE     NODE   VOLTAGE     NODE   VOLTAGE     NODE   VOLTAGE


(N01245)   10.0000 (N01263)    1.4286 (N01363) 4.285E-06 (N01369)    5.0000     

(X_S1.3)    0.0000 




    VOLTAGE SOURCE CURRENTS
    NAME         CURRENT

    V_V1        -5.000E-05
    V_V2        -7.143E-05
    X_S1.V1      0.000E+00

    TOTAL POWER DISSIPATION   8.57E-04  WATTS



          JOB CONCLUDED

**** 12/23/21 14:03:59 ******* PSpice Lite (March 2016) ******* ID# 10813 ****

 ** Profile: "SCHEMATIC1-sfdg"  [ C:\Users\ADMIN\Desktop\b5\b5-pspicefiles\schematic1\sfdg.sim ] 


 ****     JOB STATISTICS SUMMARY


******************************************************************************



  Total job time (using Solver 1)   =       58.64
